time	V(n003)	V(n004)
4.000000117849645e+000	-2.592029e-001	8.924822e-001
4.000000127439687e+000	-2.593225e-001	1.371984e+000
4.000000137909734e+000	-2.595501e-001	1.895487e+000
4.000000149089289e+000	-2.599110e-001	2.454464e+000
4.000000164246597e+000	-2.605540e-001	3.212330e+000
4.000000181820501e+000	-2.614301e-001	4.091025e+000
4.000000200000000e+000	-2.624037e-001	5.000000e+000
4.000000212725650e+000	-2.630507e-001	5.000000e+000
4.000000223094787e+000	-2.634624e-001	5.000000e+000
4.000000234858003e+000	-2.637720e-001	5.000000e+000
4.000000246876209e+000	-2.638914e-001	5.000000e+000
4.000000260238522e+000	-2.637987e-001	5.000000e+000
4.000000275519731e+000	-2.634666e-001	5.000000e+000
4.000000291938557e+000	-2.629282e-001	5.000000e+000
4.000000314853207e+000	-2.620517e-001	5.000000e+000
4.000000334588644e+000	-2.613085e-001	5.000000e+000
4.000000377028578e+000	-2.600925e-001	5.000000e+000
4.000000399937816e+000	-2.596975e-001	5.000000e+000
4.000000428178072e+000	-2.594137e-001	5.000000e+000
4.000000463623619e+000	-2.592438e-001	5.000000e+000
4.000000599188766e+000	-2.591529e-001	5.000000e+000
4.003420411002884e+000	-2.140132e-001	5.000000e+000
4.006840222817003e+000	-1.690240e-001	5.000000e+000
4.010260034631121e+000	-1.241852e-001	5.000000e+000
4.013679846445240e+000	-7.949694e-002	5.000000e+000
4.017099658259358e+000	-3.495915e-002	5.000000e+000
4.020519470073476e+000	9.428157e-003	5.000000e+000
4.023939281887595e+000	5.366499e-002	5.000000e+000
4.024039281887594e+000	5.495637e-002	5.000000e+000
4.038653567601846e+000	2.422351e-001	5.000000e+000
4.053267853316098e+000	4.269416e-001	5.000000e+000
4.067882139030349e+000	6.090758e-001	5.000000e+000
4.082496424744601e+000	7.886376e-001	5.000000e+000
4.097110710458852e+000	9.656272e-001	5.000000e+000
4.111724996173105e+000	1.140044e+000	5.000000e+000
4.126339281887356e+000	1.311889e+000	5.000000e+000
4.126439281887356e+000	1.313057e+000	5.000000e+000
4.141053567601607e+000	1.482448e+000	5.000000e+000
4.155667853315859e+000	1.649511e+000	5.000000e+000
4.170282139030110e+000	1.814248e+000	5.000000e+000
4.184896424744363e+000	1.976658e+000	5.000000e+000
4.199510710458614e+000	2.136742e+000	5.000000e+000
4.214124996172866e+000	2.294499e+000	5.000000e+000
4.228739281887117e+000	2.449929e+000	5.000000e+000
4.228839281887117e+000	2.450986e+000	5.000000e+000
4.243453567601368e+000	2.604196e+000	5.000000e+000
4.258067853315620e+000	2.755302e+000	5.000000e+000
4.272682139029872e+000	2.904303e+000	5.000000e+000
4.287296424744124e+000	3.051200e+000	5.000000e+000
4.301910710458375e+000	3.195993e+000	5.000000e+000
4.316524996172627e+000	3.338681e+000	5.000000e+000
4.331139281886879e+000	3.479265e+000	5.000000e+000
4.331239281886878e+000	3.480220e+000	5.000000e+000
4.345853567601130e+000	3.618796e+000	5.000000e+000
4.360467853315382e+000	3.755468e+000	5.000000e+000
4.375082139029633e+000	3.890237e+000	5.000000e+000
4.389696424743885e+000	4.023103e+000	5.000000e+000
4.404310710458137e+000	4.154065e+000	5.000000e+000
4.418924996172389e+000	4.283123e+000	5.000000e+000
4.433539281886640e+000	4.410279e+000	5.000000e+000
4.433639281886640e+000	4.411143e+000	5.000000e+000
4.440567853315195e+000	4.470816e+000	5.000000e+000
4.447496424743751e+000	4.530089e+000	5.000000e+000
4.454424996172306e+000	4.588963e+000	5.000000e+000
4.461353567600860e+000	4.647438e+000	5.000000e+000
4.468282139029416e+000	4.705513e+000	5.000000e+000
4.475210710457971e+000	4.763190e+000	5.000000e+000
4.482139281886527e+000	4.820467e+000	5.000000e+000
4.483239281886524e+000	4.829525e+000	5.000000e+000
4.484339281886522e+000	4.838564e+000	5.000000e+000
4.485439281886519e+000	4.847583e+000	5.000000e+000
4.486539281886516e+000	4.856582e+000	5.000000e+000
4.487639281886514e+000	4.865561e+000	5.000000e+000
4.488739281886511e+000	4.874521e+000	5.000000e+000
4.489839281886509e+000	4.883461e+000	5.000000e+000
4.490496424743650e+000	4.888787e+000	5.000000e+000
4.491153567600791e+000	4.894089e+000	5.000000e+000
4.491810710457933e+000	4.899365e+000	5.000000e+000
4.492467853315074e+000	4.904616e+000	5.000000e+000
4.493124996172216e+000	4.909843e+000	5.000000e+000
4.493782139029356e+000	4.915045e+000	5.000000e+000
4.494439281886498e+000	4.920221e+000	5.000000e+000
4.494953567600782e+000	4.924245e+000	5.000000e+000
4.495467853315067e+000	4.928229e+000	5.000000e+000
4.495982139029351e+000	4.932171e+000	5.000000e+000
4.496496424743636e+000	4.936073e+000	5.000000e+000
4.497010710457920e+000	4.939933e+000	5.000000e+000
4.497524996172206e+000	4.943753e+000	5.000000e+000
4.498039281886490e+000	4.947533e+000	5.000000e+000
4.498319413045563e+000	4.949563e+000	5.000000e+000
4.498599544204636e+000	4.951572e+000	5.000000e+000
4.498879675363709e+000	4.953560e+000	5.000000e+000
4.499159806522781e+000	4.955528e+000	5.000000e+000
4.499439937681854e+000	4.957476e+000	5.000000e+000
4.499720068840927e+000	4.959402e+000	5.000000e+000
4.500000200000000e+000	4.961308e+000	5.000000e+000
4.500000230000000e+000	4.961364e+000	3.500000e+000
4.500000260000001e+000	4.961524e+000	2.000000e+000
4.500000300000000e+000	4.961871e+000	1.373401e-008
4.500000357483069e+000	4.962256e+000	6.223859e-009
4.500000414966139e+000	4.962516e+000	5.630909e-010
4.500000472449208e+000	4.962652e+000	-3.248294e-009
4.500000529932277e+000	4.962663e+000	-5.210295e-009
4.500000587415346e+000	4.962549e+000	-5.322913e-009
4.500000644898416e+000	4.962311e+000	-3.586148e-009
4.500000702381485e+000	4.961948e+000	0.000000e+000
4.500000812370428e+000	4.961747e+000	0.000000e+000
4.500001032348314e+000	4.961519e+000	0.000000e+000
4.500001330946451e+000	4.961376e+000	0.000000e+000
4.500002175799261e+000	4.961298e+000	0.000000e+000
4.500327162091569e+000	4.957713e+000	0.000000e+000
4.500652148383877e+000	4.954072e+000	0.000000e+000
4.500977134676186e+000	4.950374e+000	0.000000e+000
4.501302120968495e+000	4.946619e+000	0.000000e+000
4.501627107260803e+000	4.942808e+000	0.000000e+000
4.501952093553111e+000	4.938940e+000	0.000000e+000
4.502277079845420e+000	4.935015e+000	0.000000e+000
4.502619936988276e+000	4.930837e+000	0.000000e+000
4.502962794131133e+000	4.926633e+000	0.000000e+000
4.503305651273989e+000	4.922403e+000	0.000000e+000
4.503648508416845e+000	4.918148e+000	0.000000e+000
4.503991365559701e+000	4.913866e+000	0.000000e+000
4.504334222702558e+000	4.909559e+000	0.000000e+000
4.504677079845414e+000	4.905227e+000	0.000000e+000
4.505177079845413e+000	4.898887e+000	0.000000e+000
4.505677079845412e+000	4.892535e+000	0.000000e+000
4.506177079845410e+000	4.886170e+000	0.000000e+000
4.506677079845409e+000	4.879794e+000	0.000000e+000
4.507177079845408e+000	4.873405e+000	0.000000e+000
4.507677079845407e+000	4.867004e+000	0.000000e+000
4.508177079845406e+000	4.860591e+000	0.000000e+000
4.509291365559689e+000	4.846299e+000	0.000000e+000
4.510405651273972e+000	4.832016e+000	0.000000e+000
4.511519936988255e+000	4.817743e+000	0.000000e+000
4.512634222702538e+000	4.803480e+000	0.000000e+000
4.513748508416821e+000	4.789226e+000	0.000000e+000
4.514862794131105e+000	4.774981e+000	0.000000e+000
4.515977079845388e+000	4.760746e+000	0.000000e+000
4.528977079845357e+000	4.595870e+000	0.000000e+000
4.543591365559609e+000	4.413099e+000	0.000000e+000
4.558205651273861e+000	4.232839e+000	0.000000e+000
4.572819936988112e+000	4.055090e+000	0.000000e+000
4.587434222702364e+000	3.879851e+000	0.000000e+000
4.602048508416615e+000	3.707122e+000	0.000000e+000
4.616662794130868e+000	3.536904e+000	0.000000e+000
4.631277079845119e+000	3.369196e+000	0.000000e+000
4.631377079845119e+000	3.368056e+000	0.000000e+000
4.645991365559370e+000	3.202744e+000	0.000000e+000
4.660605651273622e+000	3.039702e+000	0.000000e+000
4.675219936987873e+000	2.878931e+000	0.000000e+000
4.689834222702126e+000	2.720431e+000	0.000000e+000
4.704448508416377e+000	2.564201e+000	0.000000e+000
4.719062794130629e+000	2.410242e+000	0.000000e+000
4.733677079844880e+000	2.258553e+000	0.000000e+000
4.733777079844880e+000	2.257522e+000	0.000000e+000
4.748391365559131e+000	2.108000e+000	0.000000e+000
4.763005651273383e+000	1.960532e+000	0.000000e+000
4.777619936987635e+000	1.815118e+000	0.000000e+000
4.792234222701887e+000	1.671758e+000	0.000000e+000
4.806848508416138e+000	1.530451e+000	0.000000e+000
4.821462794130390e+000	1.391197e+000	0.000000e+000
4.836077079844642e+000	1.253998e+000	0.000000e+000
4.836177079844641e+000	1.253065e+000	0.000000e+000
4.850791365558893e+000	1.117826e+000	0.000000e+000
4.865405651273145e+000	9.844439e-001	0.000000e+000
4.880019936987396e+000	8.529194e-001	0.000000e+000
4.894634222701648e+000	7.232525e-001	0.000000e+000
4.909248508415899e+000	5.954431e-001	0.000000e+000
4.923862794130152e+000	4.694913e-001	0.000000e+000
4.938477079844403e+000	3.453970e-001	0.000000e+000
4.938577079844403e+000	3.445535e-001	0.000000e+000
4.946362794130099e+000	2.791459e-001	0.000000e+000
4.954148508415795e+000	2.142265e-001	0.000000e+000
4.961934222701491e+000	1.497950e-001	0.000000e+000
4.969719936987187e+000	8.585169e-002	0.000000e+000
4.977505651272884e+000	2.239640e-002	0.000000e+000
4.985291365558579e+000	-4.057082e-002	0.000000e+000
4.993077079844276e+000	-1.030500e-001	0.000000e+000
5.000000100000000e+000	-1.582152e-001	0.000000e+000
5.000000108952239e+000	-1.582199e-001	4.476120e-001
5.000000117849646e+000	-1.582691e-001	8.924823e-001
5.000000127439686e+000	-1.583887e-001	1.371984e+000
5.000000137909738e+000	-1.586164e-001	1.895487e+000
5.000000149090234e+000	-1.589773e-001	2.454512e+000
5.000000164247987e+000	-1.596203e-001	3.212399e+000
5.000000181822093e+000	-1.604965e-001	4.091105e+000
5.000000200000000e+000	-1.614699e-001	5.000000e+000
5.000000212724535e+000	-1.621169e-001	5.000000e+000
5.000000223094240e+000	-1.625286e-001	5.000000e+000
5.000000234856882e+000	-1.628382e-001	5.000000e+000
5.000000246875521e+000	-1.629577e-001	5.000000e+000
5.000000260237203e+000	-1.628650e-001	5.000000e+000
5.000000275518702e+000	-1.625329e-001	5.000000e+000
5.000000291938276e+000	-1.619945e-001	5.000000e+000
5.000000314851934e+000	-1.611180e-001	5.000000e+000
5.000000334586352e+000	-1.603749e-001	5.000000e+000
5.000000377025929e+000	-1.591589e-001	5.000000e+000
5.000000399934799e+000	-1.587638e-001	5.000000e+000
5.000000428174544e+000	-1.584800e-001	5.000000e+000
5.000000463618352e+000	-1.583101e-001	5.000000e+000
5.000000599186182e+000	-1.582192e-001	5.000000e+000
5.004806124517159e+000	-9.530909e-002	5.000000e+000
5.009611649848136e+000	-3.269191e-002	5.000000e+000
5.014417175179112e+000	2.963238e-002	5.000000e+000
5.019222700510089e+000	9.166377e-002	5.000000e+000
5.024028225841065e+000	1.534023e-001	5.000000e+000
5.028833751172043e+000	2.148479e-001	5.000000e+000
5.033639276503019e+000	2.760006e-001	5.000000e+000
5.033739276503018e+000	2.772702e-001	5.000000e+000
5.048353562217270e+000	4.613879e-001	5.000000e+000
5.062967847931522e+000	6.429767e-001	5.000000e+000
5.077582133645773e+000	8.220367e-001	5.000000e+000
5.092196419360025e+000	9.985677e-001	5.000000e+000
5.106810705074277e+000	1.172570e+000	5.000000e+000
5.121424990788529e+000	1.344043e+000	5.000000e+000
5.136039276502780e+000	1.512988e+000	5.000000e+000
5.136139276502780e+000	1.514136e+000	5.000000e+000
5.150753562217031e+000	1.680667e+000	5.000000e+000
5.165367847931283e+000	1.844911e+000	5.000000e+000
5.179982133645535e+000	2.006867e+000	5.000000e+000
5.194596419359787e+000	2.166536e+000	5.000000e+000
5.209210705074038e+000	2.323918e+000	5.000000e+000
5.223824990788290e+000	2.479012e+000	5.000000e+000
5.238439276502541e+000	2.631819e+000	5.000000e+000
5.238539276502541e+000	2.632858e+000	5.000000e+000
5.253153562216792e+000	2.783482e+000	5.000000e+000
5.267767847931045e+000	2.932037e+000	5.000000e+000
5.282382133645296e+000	3.078523e+000	5.000000e+000
5.296996419359548e+000	3.222941e+000	5.000000e+000
5.311610705073799e+000	3.365290e+000	5.000000e+000
5.326224990788051e+000	3.505569e+000	5.000000e+000
5.340839276502303e+000	3.643780e+000	5.000000e+000
5.340939276502303e+000	3.644720e+000	5.000000e+000
5.355553562216554e+000	3.780956e+000	5.000000e+000
5.370167847930806e+000	3.915322e+000	5.000000e+000
5.384782133645057e+000	4.047816e+000	5.000000e+000
5.399396419359309e+000	4.178439e+000	5.000000e+000
5.414010705073561e+000	4.307191e+000	5.000000e+000
5.428624990787813e+000	4.434071e+000	5.000000e+000
5.443239276502064e+000	4.559080e+000	5.000000e+000
5.443339276502064e+000	4.559930e+000	5.000000e+000
5.447924990787768e+000	4.598807e+000	5.000000e+000
5.452510705073471e+000	4.637508e+000	5.000000e+000
5.457096419359175e+000	4.676035e+000	5.000000e+000
5.461682133644878e+000	4.714387e+000	5.000000e+000
5.466267847930582e+000	4.752563e+000	5.000000e+000
5.470853562216285e+000	4.790565e+000	5.000000e+000
5.475439276501989e+000	4.828391e+000	5.000000e+000
5.476467847930558e+000	4.836852e+000	5.000000e+000
5.477496419359127e+000	4.845293e+000	5.000000e+000
5.478524990787697e+000	4.853715e+000	5.000000e+000
5.479553562216265e+000	4.862117e+000	5.000000e+000
5.480582133644834e+000	4.870500e+000	5.000000e+000
5.481610705073403e+000	4.878864e+000	5.000000e+000
5.482639276501972e+000	4.887208e+000	5.000000e+000
5.483282133644828e+000	4.892409e+000	5.000000e+000
5.483924990787684e+000	4.897583e+000	5.000000e+000
5.484567847930539e+000	4.902731e+000	5.000000e+000
5.485210705073395e+000	4.907852e+000	5.000000e+000
5.485853562216250e+000	4.912946e+000	5.000000e+000
5.486496419359106e+000	4.918014e+000	5.000000e+000
5.487139276501962e+000	4.923056e+000	5.000000e+000
5.487653562216246e+000	4.927060e+000	5.000000e+000
5.488167847930531e+000	4.931020e+000	5.000000e+000
5.488682133644815e+000	4.934936e+000	5.000000e+000
5.489196419359100e+000	4.938807e+000	5.000000e+000
5.489710705073384e+000	4.942634e+000	5.000000e+000
5.490224990787669e+000	4.946417e+000	5.000000e+000
5.490739276501953e+000	4.950156e+000	5.000000e+000
5.491324990787667e+000	4.954342e+000	5.000000e+000
5.491910705073379e+000	4.958418e+000	5.000000e+000
5.492496419359092e+000	4.962386e+000	5.000000e+000
5.493082133644805e+000	4.966245e+000	5.000000e+000
5.493667847930518e+000	4.969995e+000	5.000000e+000
5.494253562216231e+000	4.973636e+000	5.000000e+000
5.494839276501944e+000	4.977168e+000	5.000000e+000
5.495576551287380e+000	4.981402e+000	5.000000e+000
5.496313826072817e+000	4.985434e+000	5.000000e+000
5.497051100858253e+000	4.989265e+000	5.000000e+000
5.497788375643690e+000	4.992895e+000	5.000000e+000
5.498525650429126e+000	4.996324e+000	5.000000e+000
5.499262925214564e+000	4.999551e+000	5.000000e+000
5.500000200000000e+000	5.002577e+000	5.000000e+000
5.500000300000000e+000	5.002709e+000	1.373401e-008
5.500000725958490e+000	5.002770e+000	4.650148e-009
5.500001151916979e+000	5.002805e+000	-2.059760e-009
5.500001577875469e+000	5.002813e+000	-6.395715e-009
5.500002003833957e+000	5.002796e+000	-8.357717e-009
5.500002429792447e+000	5.002752e+000	-7.945765e-009
5.500002855750936e+000	5.002682e+000	-5.159859e-009
5.500003281709426e+000	5.002585e+000	0.000000e+000
5.500664252871488e+000	4.998013e+000	0.000000e+000
5.501325224033550e+000	4.993038e+000	0.000000e+000
5.501986195195612e+000	4.987659e+000	0.000000e+000
5.502647166357675e+000	4.981877e+000	0.000000e+000
5.503308137519737e+000	4.975691e+000	0.000000e+000
5.503969108681799e+000	4.969102e+000	0.000000e+000
5.504630079843861e+000	4.962110e+000	0.000000e+000
5.504944365558146e+000	4.958664e+000	0.000000e+000
5.505258651272431e+000	4.955163e+000	0.000000e+000
5.505572936986716e+000	4.951607e+000	0.000000e+000
5.505887222701001e+000	4.947995e+000	0.000000e+000
5.506201508415286e+000	4.944328e+000	0.000000e+000
5.506515794129571e+000	4.940606e+000	0.000000e+000
5.506830079843856e+000	4.936828e+000	0.000000e+000
5.507172936986712e+000	4.932667e+000	0.000000e+000
5.507515794129569e+000	4.928479e+000	0.000000e+000
5.507858651272425e+000	4.924263e+000	0.000000e+000
5.508201508415281e+000	4.920020e+000	0.000000e+000
5.508544365558137e+000	4.915749e+000	0.000000e+000
5.508887222700994e+000	4.911450e+000	0.000000e+000
5.509230079843850e+000	4.907124e+000	0.000000e+000
5.509715794129564e+000	4.900973e+000	0.000000e+000
5.510201508415277e+000	4.894810e+000	0.000000e+000
5.510687222700990e+000	4.888633e+000	0.000000e+000
5.511172936986703e+000	4.882444e+000	0.000000e+000
5.511658651272416e+000	4.876241e+000	0.000000e+000
5.512144365558129e+000	4.870026e+000	0.000000e+000
5.512630079843842e+000	4.863798e+000	0.000000e+000
5.513672936986697e+000	4.850423e+000	0.000000e+000
5.514715794129552e+000	4.837056e+000	0.000000e+000
5.515758651272407e+000	4.823696e+000	0.000000e+000
5.516801508415261e+000	4.810342e+000	0.000000e+000
5.517844365558116e+000	4.796996e+000	0.000000e+000
5.518887222700971e+000	4.783657e+000	0.000000e+000
5.519930079843825e+000	4.770325e+000	0.000000e+000
5.539230079843780e+000	4.526120e+000	0.000000e+000
5.553844365558032e+000	4.344341e+000	0.000000e+000
5.568458651272284e+000	4.165060e+000	0.000000e+000
5.583072936986535e+000	3.988275e+000	0.000000e+000
5.597687222700787e+000	3.813987e+000	0.000000e+000
5.612301508415039e+000	3.642195e+000	0.000000e+000
5.626915794129291e+000	3.472900e+000	0.000000e+000
5.641530079843542e+000	3.306103e+000	0.000000e+000
5.641630079843542e+000	3.304969e+000	0.000000e+000
5.656244365557793e+000	3.140554e+000	0.000000e+000
5.670858651272045e+000	2.978397e+000	0.000000e+000
5.685472936986296e+000	2.818498e+000	0.000000e+000
5.700087222700549e+000	2.660858e+000	0.000000e+000
5.714701508414800e+000	2.505476e+000	0.000000e+000
5.729315794129052e+000	2.352352e+000	0.000000e+000
5.743930079843303e+000	2.201486e+000	0.000000e+000
5.744030079843303e+000	2.200461e+000	0.000000e+000
5.758644365557554e+000	2.051751e+000	0.000000e+000
5.773258651271807e+000	1.905083e+000	0.000000e+000
5.787872936986058e+000	1.760458e+000	0.000000e+000
5.802487222700310e+000	1.617875e+000	0.000000e+000
5.817101508414561e+000	1.477335e+000	0.000000e+000
5.831715794128813e+000	1.338837e+000	0.000000e+000
5.846330079843065e+000	1.202382e+000	0.000000e+000
5.846430079843064e+000	1.201455e+000	0.000000e+000
5.861044365557316e+000	1.066949e+000	0.000000e+000
5.875658651271568e+000	9.342908e-001	0.000000e+000
5.890272936985819e+000	8.034800e-001	0.000000e+000
5.904887222700071e+000	6.745167e-001	0.000000e+000
5.919501508414323e+000	5.474009e-001	0.000000e+000
5.934115794128575e+000	4.221325e-001	0.000000e+000
5.948730079842826e+000	2.987115e-001	0.000000e+000
5.948830079842826e+000	2.978727e-001	0.000000e+000
5.956140082722422e+000	2.367795e-001	0.000000e+000
5.963450085602019e+000	1.761150e-001	0.000000e+000
5.970760088481615e+000	1.158791e-001	0.000000e+000
5.978070091361211e+000	5.607173e-002	0.000000e+000
5.985380094240807e+000	-3.306981e-003	0.000000e+000
5.992690097120404e+000	-6.225709e-002	0.000000e+000
6.000000100000000e+000	-1.207786e-001	0.000000e+000
6.000000108952240e+000	-1.207833e-001	4.476120e-001
6.000000117849636e+000	-1.208325e-001	8.924818e-001
6.000000127439719e+000	-1.209521e-001	1.371986e+000
6.000000137909748e+000	-1.211798e-001	1.895487e+000
6.000000149090610e+000	-1.215407e-001	2.454530e+000
6.000000164248508e+000	-1.221837e-001	3.212425e+000
6.000000181822736e+000	-1.230599e-001	4.091137e+000
6.000000200000000e+000	-1.240333e-001	5.000000e+000
6.000000212724085e+000	-1.246803e-001	5.000000e+000
6.000000223093992e+000	-1.250920e-001	5.000000e+000
6.000000234856420e+000	-1.254016e-001	5.000000e+000
6.000000246875223e+000	-1.255211e-001	5.000000e+000
6.000000260236662e+000	-1.254284e-001	5.000000e+000
6.000000275518263e+000	-1.250963e-001	5.000000e+000
6.000000291938104e+000	-1.245579e-001	5.000000e+000
6.000000314851338e+000	-1.236815e-001	5.000000e+000
6.000000334585325e+000	-1.229383e-001	5.000000e+000
6.000000377024747e+000	-1.217223e-001	5.000000e+000
6.000000399933464e+000	-1.213272e-001	5.000000e+000
6.000000428172966e+000	-1.210435e-001	5.000000e+000
6.000000463615989e+000	-1.208736e-001	5.000000e+000
6.000000599184934e+000	-1.207826e-001	5.000000e+000
6.006106124196610e+000	-4.113167e-002	5.000000e+000
6.012211649208288e+000	3.805025e-002	5.000000e+000
